
T0468 000:565 SEGGER J-Link V4.40c Log File (0001ms, 0565ms total)
T0468 000:565 DLL Compiled: Jan 24 2012 09:30:33 (0001ms, 0565ms total)
T0468 000:565 Logging started @ 2014-07-21 22:31 (0001ms, 0565ms total)
T0468 000:566 JLINK_SetWarnOutHandler(...) (0000ms, 0566ms total)
T0468 000:566 JLINK_OpenEx(...)
Firmware: J-Link ARM V8 compiled Jul 17 2013 11:24:15
Hardware: V8.00
S/N: 99999994
Feature(s): RDI,FlashDL,FlashBP,JFlash,GDBFULL  returns O.K. (0232ms, 0566ms total)
T0468 000:798 JLINK_SetErrorOutHandler(...) (0000ms, 0798ms total)
T0468 000:798 JLINK_ExecCommand("Device = MK60DN256xxx10", ...)
                JLINK_ExecCommand("map ram 0x1FFF8000 - 0x20007FFF", ...)  returns 0x00 (0000ms, 0000ms total)
                JLINK_AddMirrorAreaEx(Addr = 0x00000000, Size = 0x00000000) (0000ms, 0000ms total)
              Device "MK60DN256XXX10" selected (256 KB flash, 64 KB RAM).  returns 0x00 (0003ms, 0798ms total)
T0468 000:802 JLINK_ExecCommand("ProjectFile = "F:\าตำเ\SmartCar\PRJ\JLinkSettings.ini"", ...)  returns 0x00 (0001ms, 0801ms total)
T0468 000:808 JLINK_ExecCommand("DisableConnectionTimeout", ...)  returns 0x00 (0000ms, 0803ms total)
T0468 000:809 JLINK_TIF_Select(JLINKARM_TIF_SWD)  returns 0x00 (0001ms, 0803ms total)
T0468 000:810 JLINK_SetSpeed(5000) (0000ms, 0804ms total)
T0468 000:810 JLINK_GetHardwareVersion()  returns 0x13880 (0000ms, 0804ms total)
T0468 000:810 JLINK_GetDLLVersion()  returns 44003 (0000ms, 0804ms total)
T0468 000:811 JLINK_GetFirmwareString(...) (0000ms, 0805ms total)
T0468 000:818 JLINK_GetDLLVersion()  returns 44003 (0000ms, 0805ms total)
T0468 000:818 JLINK_GetCompileDateTime() (0000ms, 0805ms total)
T0468 000:820 JLINK_GetFirmwareString(...) (0000ms, 0805ms total)
T0468 000:822 JLINK_GetHardwareVersion()  returns 0x13880 (0000ms, 0805ms total)
T0468 000:830 JLINK_GetId() >0x108 TIF>Found SWD-DP with ID 0x2BA01477 >0x33 TIF> >0x33 TIF> >0x35 TIF> >0x33 TIF> >0x35 TIF> >0x33 TIF> >0x33 TIF> >0x35 TIF> >0x33 TIF> >0x33 TIF> >0x35 TIF> >0x33 TIF> >0x33 TIF> >0x35 TIF> >0x33 TIF> >0x33 TIF> >0x35 TIF> >0x33 TIF> >0x33 TIF> >0x33 TIF> >0x33 TIF> >0x33 TIF> >0x33 TIF> >0x33 TIF> >0x33 TIF> >0x33 TIF> >0x33 TIF> >0x33 TIF> >0x33 TIF> >0x33 TIF> >0x33 TIF> >0x33 TIF> >0x33 TIF> >0x33 TIF> >0x33 TIF> >0x33 TIF> >0x33 TIF> >0x33 TIF> >0x33 TIF>
 >0x33 TIF> >0x33 TIF> >0x33 TIF> >0x33 TIF> >0x33 TIF> >0x33 TIF> >0x33 TIF> >0x33 TIF> >0x33 TIF> >0x33 TIF> >0x33 TIF> >0x33 TIF> >0x33 TIF> >0x33 TIF> >0x33 TIF> >0x33 TIF> >0x33 TIF> >0x33 TIF> >0x33 TIF> >0x33 TIF> >0x33 TIF> >0x33 TIF> >0x33 TIF> >0x33 TIF> >0x33 TIF> >0x33 TIF> >0x33 TIF> >0x33 TIF> >0x33 TIF> >0x33 TIF> >0x33 TIF> >0x33 TIF> >0x33 TIF> >0x33 TIF> >0x33 TIF> >0x33 TIF> >0x33 TIF> >0x33 TIF> >0x33 TIF> >0x33 TIF> >0x33 TIF> >0x33 TIF> >0x33 TIF> >0x33 TIF> >0x33 TIF> >0x33 TIF>
 >0x33 TIF> >0x33 TIF> >0x33 TIF> >0x33 TIF> >0x33 TIF> >0x33 TIF> >0x33 TIF> >0x33 TIF> >0x33 TIF> >0x33 TIF> >0x33 TIF> >0x33 TIF> >0x33 TIF> >0x33 TIF> >0x33 TIF> >0x33 TIF> >0x33 TIF> >0x33 TIF> >0x33 TIF> >0x33 TIF> >0x33 TIF> >0x33 TIF> >0x33 TIF> >0x33 TIF> >0x33 TIF> >0x33 TIF> >0x33 TIF> >0x33 TIF> >0x33 TIF> >0x33 TIF> >0x33 TIF> >0x33 TIF> >0x33 TIF> >0x33 TIF> >0x33 TIF> >0x33 TIF> >0x33 TIF> >0x33 TIF> >0x33 TIF> >0x33 TIF> >0x33 TIF> >0x33 TIF> >0x33 TIF> >0x33 TIF> >0x33 TIF> >0x33 TIF>
 >0x33 TIF> >0x33 TIF> >0x33 TIF> >0x33 TIF> >0x33 TIF> >0x33 TIF> >0x33 TIF> >0x33 TIF> >0x33 TIF> >0x33 TIF> >0x33 TIF> >0x33 TIF> >0x33 TIF> >0x33 TIF> >0x33 TIF> >0x33 TIF> >0x33 TIF> >0x33 TIF> >0x33 TIF> >0x33 TIF> >0x33 TIF> >0x33 TIF> >0x33 TIF> >0x33 TIF> >0x33 TIF> >0x33 TIF> >0x33 TIF> >0x33 TIF> >0x33 TIF> >0x33 TIF> >0x33 TIF> >0x33 TIF> >0x33 TIF> >0x33 TIF> >0x33 TIF> >0x33 TIF> >0x33 TIF> >0x33 TIF> >0x33 TIF> >0x33 TIF> >0x33 TIF> >0x33 TIF> >0x33 TIF> >0x33 TIF> >0x33 TIF> >0x33 TIF>
 >0x33 TIF> >0x33 TIF> >0x33 TIF> >0x33 TIF> >0x33 TIF> >0x33 TIF> >0x33 TIF> >0x33 TIF> >0x33 TIF> >0x33 TIF> >0x33 TIF> >0x33 TIF> >0x33 TIF> >0x33 TIF> >0x33 TIF> >0x33 TIF> >0x33 TIF> >0x33 TIF> >0x33 TIF> >0x33 TIF> >0x33 TIF> >0x33 TIF> >0x33 TIF> >0x33 TIF> >0x33 TIF> >0x33 TIF> >0x33 TIF> >0x33 TIF> >0x33 TIF> >0x33 TIF> >0x33 TIF> >0x33 TIF> >0x33 TIF> >0x33 TIF> >0x33 TIF> >0x33 TIF> >0x33 TIF> >0x33 TIF> >0x33 TIF> >0x33 TIF> >0x33 TIF> >0x33 TIF> >0x33 TIF> >0x33 TIF> >0x33 TIF> >0x33 TIF>
 >0x33 TIF> >0x33 TIF> >0x33 TIF> >0x33 TIF> >0x33 TIF> >0x33 TIF> >0x33 TIF> >0x33 TIF> >0x33 TIF> >0x33 TIF> >0x33 TIF> >0x33 TIF> >0x33 TIF> >0x33 TIF> >0x33 TIF> >0x33 TIF> >0x33 TIF> >0x33 TIF> >0x33 TIF> >0x33 TIF> >0x33 TIF> >0x33 TIF> >0x33 TIF> >0x33 TIF> >0x33 TIF> >0x33 TIF> >0x33 TIF> >0x33 TIF> >0x33 TIF> >0x33 TIF> >0x33 TIF> >0x33 TIF> >0x33 TIF> >0x33 TIF> >0x33 TIF> >0x33 TIF> >0x33 TIF> >0x33 TIF> >0x33 TIF> >0x33 TIF> >0x33 TIF> >0x33 TIF> >0x33 TIF> >0x33 TIF> >0x33 TIF> >0x33 TIF>
 >0x33 TIF> >0x33 TIF> >0x33 TIF> >0x33 TIF> >0x33 TIF> >0x33 TIF> >0x33 TIF> >0x33 TIF> >0x33 TIF> >0x33 TIF> >0x33 TIF> >0x33 TIF> >0x33 TIF> >0x33 TIF> >0x33 TIF> >0x33 TIF> >0x33 TIF> >0x33 TIF> >0x33 TIF> >0x33 TIF> >0x33 TIF> >0x33 TIF> >0x33 TIF> >0x33 TIF> >0x33 TIF> >0x33 TIF> >0x33 TIF> >0x33 TIF> >0x33 TIF> >0x33 TIF> >0x33 TIF> >0x33 TIF> >0x33 TIF> >0x33 TIF> >0x33 TIF> >0x33 TIF> >0x33 TIF> >0x33 TIF> >0x33 TIF> >0x33 TIF> >0x33 TIF> >0x33 TIF> >0x33 TIF> >0x33 TIF> >0x33 TIF> >0x33 TIF>
 >0x33 TIF> >0x33 TIF> >0x33 TIF> >0x33 TIF> >0x33 TIF> >0x33 TIF> >0x33 TIF> >0x33 TIF> >0x33 TIF> >0x33 TIF> >0x33 TIF> >0x33 TIF> >0x33 TIF> >0x33 TIF> >0x33 TIF> >0x33 TIF> >0x33 TIF> >0x33 TIF> >0x33 TIF> >0x33 TIF> >0x33 TIF> >0x33 TIF> >0x33 TIF> >0x33 TIF> >0x33 TIF> >0x33 TIF> >0x33 TIF> >0x33 TIF> >0x33 TIF> >0x33 TIF> >0x33 TIF> >0x33 TIF> >0x33 TIF> >0x33 TIF> >0x33 TIF> >0x33 TIF> >0x33 TIF> >0x33 TIF> >0x33 TIF> >0x35 TIF> >0x35 TIF> >0x35 TIF> >0x35 TIF> >0x35 TIF> >0x33 TIF> >0x33 TIF>
 >0x35 TIF> >0x33 TIF> >0x33 TIF> >0x33 TIF>TPIU fitted.ETM fitted. >0x35 TIF> >0x33 TIF> >0x33 TIF> >0x35 TIF> >0x33 TIF> >0x33 TIF> >0x33 TIF>ETB present. >0x35 TIF> >0x33 TIF> >0x33 TIF> >0x35 TIF> >0x33 TIF> >0x33 TIF> >0x33 TIF>CSTF present. >0x35 TIF> >0x33 TIF> >0x33 TIF> >0x35 TIF> >0x33 TIF> >0x33 TIF>  FPUnit: 6 code (BP) slots and 2 literal slots >0x35 TIF> >0x33 TIF> >0x33 TIF> >0x35 TIF> >0x35 TIF> >0x35 TIF> >0x33 TIF> >0x33 TIF> >0x35 TIF> >0x33 TIF> >0x33 TIF> >0x35 TIF> >0x33 TIF>
 >0x33 TIF>Found Cortex-M4 r0p0, Little endian. >0x33 TIF>  returns 0x2BA01477 (0145ms, 0805ms total)
T0468 000:976 JLINK_TIF_Select(JLINKARM_TIF_SWD)  returns 0x00 (0000ms, 0950ms total)
T0468 000:976 JLINK_JTAG_StoreRaw(..., 0x108 Bits)  returns 0x00 (0000ms, 0950ms total)
T0468 000:976 JLINK_JTAG_GetU32(BitPos = 227) >0x108 TIF>  returns 0x2BA01477 (0000ms, 0950ms total)
T0468 000:979 JLINK_JTAG_StoreRaw(..., 0x08 Bits)  returns 0x00 (0000ms, 0950ms total)
T0468 000:979 JLINK_JTAG_StoreRaw(..., 0x03 Bits)  returns 0x08 (0000ms, 0950ms total)
T0468 000:979 JLINK_JTAG_StoreRaw(..., 0x28 Bits)  returns 0x0B (0000ms, 0950ms total)
T0468 000:979 JLINK_JTAG_GetU8(BitPos = 8) >0x33 TIF>  returns 0xB9 (0001ms, 0950ms total)
T0468 000:980 JLINK_JTAG_GetU32(BitPos = 11)  returns 0x2BA01477 (0000ms, 0951ms total)
T0468 000:980 JLINK_JTAG_GetU8(BitPos = 43)  returns 0x02 (0000ms, 0951ms total)
T0468 000:980 JLINK_JTAG_StoreRaw(..., 0x08 Bits)  returns 0x00 (0000ms, 0951ms total)
T0468 000:980 JLINK_JTAG_StoreRaw(..., 0x03 Bits)  returns 0x08 (0000ms, 0951ms total)
T0468 000:980 JLINK_JTAG_StoreRaw(..., 0x28 Bits)  returns 0x0B (0000ms, 0951ms total)
T0468 000:980 JLINK_JTAG_GetU8(BitPos = 8) >0x33 TIF>  returns 0x19 (0001ms, 0951ms total)
T0468 000:981 JLINK_JTAG_GetU32(BitPos = 11)  returns 0xF0000043 (0000ms, 0952ms total)
T0468 000:981 JLINK_JTAG_GetU8(BitPos = 43)  returns 0x03 (0000ms, 0952ms total)
T0468 000:981 JLINK_JTAG_StoreRaw(..., 0x08 Bits)  returns 0x00 (0000ms, 0952ms total)
T0468 000:981 JLINK_JTAG_StoreRaw(..., 0x03 Bits)  returns 0x08 (0000ms, 0952ms total)
T0468 000:981 JLINK_JTAG_StoreRaw(..., 0x02 Bits)  returns 0x0B (0000ms, 0952ms total)
T0468 000:981 JLINK_JTAG_StoreRaw(..., 0x28 Bits)  returns 0x0D (0000ms, 0952ms total)
T0468 000:981 JLINK_JTAG_GetU8(BitPos = 8) >0x35 TIF>  returns 0xD9 (0001ms, 0952ms total)
T0468 000:982 JLINK_JTAG_StoreRaw(..., 0x08 Bits)  returns 0x00 (0000ms, 0953ms total)
T0468 000:982 JLINK_JTAG_StoreRaw(..., 0x03 Bits)  returns 0x08 (0000ms, 0953ms total)
T0468 000:982 JLINK_JTAG_StoreRaw(..., 0x28 Bits)  returns 0x0B (0000ms, 0953ms total)
T0468 000:982 JLINK_JTAG_GetU8(BitPos = 8) >0x33 TIF>  returns 0x09 (0001ms, 0953ms total)
T0468 000:983 JLINK_JTAG_GetU32(BitPos = 11)  returns 0xF0000041 (0000ms, 0954ms total)
T0468 000:983 JLINK_JTAG_GetU8(BitPos = 43)  returns 0x02 (0000ms, 0954ms total)
T0468 000:983 JLINK_JTAG_StoreRaw(..., 0x08 Bits)  returns 0x00 (0000ms, 0954ms total)
T0468 000:983 JLINK_JTAG_StoreRaw(..., 0x03 Bits)  returns 0x08 (0000ms, 0954ms total)
T0468 000:983 JLINK_JTAG_StoreRaw(..., 0x02 Bits)  returns 0x0B (0000ms, 0954ms total)
T0468 000:983 JLINK_JTAG_StoreRaw(..., 0x28 Bits)  returns 0x0D (0000ms, 0954ms total)
T0468 000:983 JLINK_JTAG_GetU8(BitPos = 8) >0x35 TIF>  returns 0x39 (0001ms, 0954ms total)
T0468 000:984 JLINK_JTAG_StoreRaw(..., 0x08 Bits)  returns 0x00 (0000ms, 0955ms total)
T0468 000:984 JLINK_JTAG_StoreRaw(..., 0x03 Bits)  returns 0x08 (0000ms, 0955ms total)
T0468 000:984 JLINK_JTAG_StoreRaw(..., 0x28 Bits)  returns 0x0B (0000ms, 0955ms total)
T0468 000:984 JLINK_JTAG_GetU8(BitPos = 8) >0x33 TIF>  returns 0x09 (0001ms, 0955ms total)
T0468 000:985 JLINK_JTAG_GetU32(BitPos = 11)  returns 0xF0000041 (0000ms, 0956ms total)
T0468 000:985 JLINK_JTAG_GetU8(BitPos = 43)  returns 0x02 (0000ms, 0956ms total)
T0468 000:988 JLINK_ClrRESET() (0001ms, 0956ms total)
T0468 001:189 JLINK_JTAG_StoreRaw(..., 0x08 Bits)  returns 0x00 (0000ms, 0957ms total)
T0468 001:189 JLINK_JTAG_StoreRaw(..., 0x03 Bits)  returns 0x08 (0000ms, 0957ms total)
T0468 001:189 JLINK_JTAG_StoreRaw(..., 0x02 Bits)  returns 0x0B (0000ms, 0957ms total)
T0468 001:189 JLINK_JTAG_StoreRaw(..., 0x28 Bits)  returns 0x0D (0000ms, 0957ms total)
T0468 001:189 JLINK_JTAG_GetU8(BitPos = 8) >0x35 TIF>  returns 0xD9 (0001ms, 0957ms total)
T0468 001:190 JLINK_JTAG_StoreRaw(..., 0x08 Bits)  returns 0x00 (0000ms, 0958ms total)
T0468 001:190 JLINK_JTAG_StoreRaw(..., 0x03 Bits)  returns 0x08 (0000ms, 0958ms total)
T0468 001:190 JLINK_JTAG_StoreRaw(..., 0x02 Bits)  returns 0x0B (0000ms, 0958ms total)
T0468 001:190 JLINK_JTAG_StoreRaw(..., 0x28 Bits)  returns 0x0D (0000ms, 0958ms total)
T0468 001:190 JLINK_JTAG_GetU8(BitPos = 8) >0x35 TIF>  returns 0x19 (0001ms, 0958ms total)
T0468 001:191 JLINK_JTAG_StoreRaw(..., 0x08 Bits)  returns 0x00 (0000ms, 0959ms total)
T0468 001:191 JLINK_JTAG_StoreRaw(..., 0x03 Bits)  returns 0x08 (0000ms, 0959ms total)
T0468 001:191 JLINK_JTAG_StoreRaw(..., 0x28 Bits)  returns 0x0B (0000ms, 0959ms total)
T0468 001:191 JLINK_JTAG_GetU8(BitPos = 8) >0x33 TIF>  returns 0x01 (0001ms, 0959ms total)
T0468 001:192 JLINK_JTAG_GetU32(BitPos = 11)  returns 0xFA050000 (0000ms, 0960ms total)
T0468 001:192 JLINK_JTAG_GetU8(BitPos = 43)  returns 0x02 (0000ms, 0960ms total)
T0468 001:192 JLINK_JTAG_StoreRaw(..., 0x08 Bits)  returns 0x00 (0000ms, 0960ms total)
T0468 001:192 JLINK_JTAG_StoreRaw(..., 0x03 Bits)  returns 0x08 (0000ms, 0960ms total)
T0468 001:192 JLINK_JTAG_StoreRaw(..., 0x28 Bits)  returns 0x0B (0000ms, 0960ms total)
T0468 001:192 JLINK_JTAG_GetU8(BitPos = 8) >0x33 TIF>  returns 0x91 (0001ms, 0960ms total)
T0468 001:193 JLINK_JTAG_GetU32(BitPos = 11)  returns 0x00000032 (0000ms, 0961ms total)
T0468 001:193 JLINK_JTAG_GetU8(BitPos = 43)  returns 0x03 (0000ms, 0961ms total)
T0468 001:193 JLINK_GetDebugInfo(0x100) -- Value=0xE00FF003  returns 0x00 (0001ms, 0961ms total)
T0468 001:197 JLINK_ReadMem (0xE00FFFF0, 0x0010 Bytes, ...) -- CPU is running -- CPU_ReadMem(16 bytes @ 0xE00FFFF0) -- Data:  0D 00 00 00 10 00 00 00 05 00 00 00 B1 00 00 00  returns 0x00 (0001ms, 0962ms total)
T0468 001:198 JLINK_ReadMem (0xE00FFFD0, 0x0020 Bytes, ...) -- CPU is running -- CPU_ReadMem(32 bytes @ 0xE00FFFD0) -- Data:  04 00 00 00 00 00 00 00 00 00 00 00 00 00 00 00 ...  returns 0x00 (0002ms, 0963ms total)
T0468 001:200 JLINK_ReadMem (0xE00FF000, 0x0018 Bytes, ...) -- CPU is running -- CPU_ReadMem(24 bytes @ 0xE00FF000) -- Data:  03 F0 F0 FF 03 20 F0 FF 03 30 F0 FF 03 10 F0 FF ...  returns 0x00 (0001ms, 0965ms total)
T0468 001:201 JLINK_ReadMemU32(0xE000ED00, 0x0001 Items, ...) -- CPU is running -- CPU_ReadMem(4 bytes @ 0xE000ED00) -- Data:  40 C2 0F 41  returns 0x01 (0000ms, 0966ms total)
T0468 001:201 JLINK_ReadMemU32(0xE000EF40, 0x0001 Items, ...) -- CPU is running -- CPU_ReadMem(4 bytes @ 0xE000EF40) -- Data:  00 00 00 00  returns 0x01 (0001ms, 0966ms total)
T0468 001:202 JLINK_ReadMemU32(0xE000EF44, 0x0001 Items, ...) -- CPU is running -- CPU_ReadMem(4 bytes @ 0xE000EF44) -- Data:  00 00 00 00  returns 0x01 (0001ms, 0967ms total)
T0468 001:203 JLINK_SetResetType(JLINKARM_RESET_TYPE_NORMAL)  returns JLINKARM_RESET_TYPE_SOFT (0000ms, 0968ms total)
T0468 001:203 JLINK_Reset() >0x108 TIF>Found SWD-DP with ID 0x2BA01477 >0x33 TIF> >0x33 TIF> >0x35 TIF> >0x33 TIF> >0x35 TIF> >0x33 TIF> >0x33 TIF> >0x35 TIF> >0x33 TIF> >0x33 TIF> >0x35 TIF> >0x33 TIF> >0x33 TIF> >0x35 TIF> >0x33 TIF> >0x33 TIF> >0x35 TIF> >0x33 TIF> >0x33 TIF> >0x33 TIF> >0x33 TIF> >0x33 TIF> >0x33 TIF> >0x33 TIF> >0x33 TIF> >0x33 TIF> >0x33 TIF> >0x33 TIF> >0x33 TIF> >0x33 TIF> >0x33 TIF> >0x33 TIF> >0x33 TIF> >0x33 TIF> >0x33 TIF> >0x33 TIF> >0x33 TIF> >0x33 TIF> >0x33 TIF>
 >0x33 TIF> >0x33 TIF> >0x33 TIF> >0x33 TIF> >0x33 TIF> >0x33 TIF> >0x33 TIF> >0x33 TIF> >0x33 TIF> >0x33 TIF> >0x33 TIF> >0x33 TIF> >0x33 TIF> >0x33 TIF> >0x33 TIF> >0x33 TIF> >0x33 TIF> >0x33 TIF> >0x33 TIF> >0x33 TIF> >0x33 TIF> >0x33 TIF> >0x33 TIF> >0x33 TIF> >0x33 TIF> >0x33 TIF> >0x33 TIF> >0x33 TIF> >0x33 TIF> >0x33 TIF> >0x33 TIF> >0x33 TIF> >0x33 TIF> >0x33 TIF> >0x33 TIF> >0x33 TIF> >0x33 TIF> >0x33 TIF> >0x33 TIF> >0x33 TIF> >0x33 TIF> >0x33 TIF> >0x33 TIF> >0x33 TIF> >0x33 TIF> >0x33 TIF>
 >0x33 TIF> >0x33 TIF> >0x33 TIF> >0x33 TIF> >0x33 TIF> >0x33 TIF> >0x33 TIF> >0x33 TIF> >0x33 TIF> >0x33 TIF> >0x33 TIF> >0x33 TIF> >0x33 TIF> >0x33 TIF> >0x33 TIF> >0x33 TIF> >0x33 TIF> >0x33 TIF> >0x33 TIF> >0x33 TIF> >0x33 TIF> >0x33 TIF> >0x33 TIF> >0x33 TIF> >0x33 TIF> >0x33 TIF> >0x33 TIF> >0x33 TIF> >0x33 TIF> >0x33 TIF> >0x33 TIF> >0x33 TIF> >0x33 TIF> >0x33 TIF> >0x33 TIF> >0x33 TIF> >0x33 TIF> >0x33 TIF> >0x33 TIF> >0x33 TIF> >0x33 TIF> >0x33 TIF> >0x33 TIF> >0x33 TIF> >0x33 TIF> >0x33 TIF>
 >0x33 TIF> >0x33 TIF> >0x33 TIF> >0x33 TIF> >0x33 TIF> >0x33 TIF> >0x33 TIF> >0x33 TIF> >0x33 TIF> >0x33 TIF> >0x33 TIF> >0x33 TIF> >0x33 TIF> >0x33 TIF> >0x33 TIF> >0x33 TIF> >0x33 TIF> >0x33 TIF> >0x33 TIF> >0x33 TIF> >0x33 TIF> >0x33 TIF> >0x33 TIF> >0x33 TIF> >0x33 TIF> >0x33 TIF> >0x33 TIF> >0x33 TIF> >0x33 TIF> >0x33 TIF> >0x33 TIF> >0x33 TIF> >0x33 TIF> >0x33 TIF> >0x33 TIF> >0x33 TIF> >0x33 TIF> >0x33 TIF> >0x33 TIF> >0x33 TIF> >0x33 TIF> >0x33 TIF> >0x33 TIF> >0x33 TIF> >0x33 TIF> >0x33 TIF>
 >0x33 TIF> >0x33 TIF> >0x33 TIF> >0x33 TIF> >0x33 TIF> >0x33 TIF> >0x33 TIF> >0x33 TIF> >0x33 TIF> >0x33 TIF> >0x33 TIF> >0x33 TIF> >0x33 TIF> >0x33 TIF> >0x33 TIF> >0x33 TIF> >0x33 TIF> >0x33 TIF> >0x33 TIF> >0x33 TIF> >0x33 TIF> >0x33 TIF> >0x33 TIF> >0x33 TIF> >0x33 TIF> >0x33 TIF> >0x33 TIF> >0x33 TIF> >0x33 TIF> >0x33 TIF> >0x33 TIF> >0x33 TIF> >0x33 TIF> >0x33 TIF> >0x33 TIF> >0x33 TIF> >0x33 TIF> >0x33 TIF> >0x33 TIF> >0x33 TIF> >0x33 TIF> >0x33 TIF> >0x33 TIF> >0x33 TIF> >0x33 TIF> >0x33 TIF>
 >0x33 TIF> >0x33 TIF> >0x33 TIF> >0x33 TIF> >0x33 TIF> >0x33 TIF> >0x33 TIF> >0x33 TIF> >0x33 TIF> >0x33 TIF> >0x33 TIF> >0x33 TIF> >0x33 TIF> >0x33 TIF> >0x33 TIF> >0x33 TIF> >0x33 TIF> >0x33 TIF> >0x33 TIF> >0x33 TIF> >0x33 TIF> >0x33 TIF> >0x33 TIF> >0x33 TIF> >0x33 TIF> >0x33 TIF> >0x33 TIF> >0x33 TIF> >0x33 TIF> >0x33 TIF> >0x33 TIF> >0x33 TIF> >0x33 TIF> >0x33 TIF> >0x33 TIF> >0x33 TIF> >0x33 TIF> >0x33 TIF> >0x33 TIF> >0x33 TIF> >0x33 TIF> >0x33 TIF> >0x33 TIF> >0x33 TIF> >0x33 TIF> >0x33 TIF>
 >0x33 TIF> >0x33 TIF> >0x33 TIF> >0x33 TIF> >0x33 TIF> >0x33 TIF> >0x33 TIF> >0x33 TIF> >0x33 TIF> >0x33 TIF> >0x33 TIF> >0x33 TIF> >0x33 TIF> >0x33 TIF> >0x33 TIF> >0x33 TIF> >0x33 TIF> >0x33 TIF> >0x33 TIF> >0x33 TIF> >0x33 TIF> >0x33 TIF> >0x33 TIF> >0x33 TIF> >0x33 TIF> >0x33 TIF> >0x33 TIF> >0x33 TIF> >0x33 TIF> >0x33 TIF> >0x33 TIF> >0x33 TIF> >0x33 TIF> >0x33 TIF> >0x33 TIF> >0x33 TIF> >0x33 TIF> >0x33 TIF> >0x33 TIF> >0x33 TIF> >0x33 TIF> >0x33 TIF> >0x33 TIF> >0x33 TIF> >0x33 TIF> >0x33 TIF>
 >0x33 TIF> >0x33 TIF> >0x33 TIF> >0x33 TIF> >0x33 TIF> >0x33 TIF> >0x33 TIF> >0x33 TIF> >0x33 TIF> >0x33 TIF> >0x33 TIF> >0x33 TIF> >0x33 TIF> >0x33 TIF> >0x33 TIF> >0x33 TIF> >0x33 TIF> >0x33 TIF> >0x33 TIF> >0x33 TIF> >0x33 TIF> >0x33 TIF> >0x33 TIF> >0x33 TIF> >0x33 TIF> >0x33 TIF> >0x35 TIF> >0x35 TIF> >0x35 TIF> >0x35 TIF> >0x35 TIF> >0x35 TIF> >0x35 TIF> >0x35 TIF> >0x35 TIF> >0x35 TIF> >0x35 TIF> >0x33 TIF> >0x33 TIF> >0x35 TIF> >0x33 TIF> >0x33 TIF> >0x33 TIF>TPIU fitted.ETM fitted. >0x35 TIF>
 >0x33 TIF> >0x33 TIF> >0x35 TIF> >0x33 TIF> >0x33 TIF> >0x33 TIF>ETB present. >0x35 TIF> >0x33 TIF> >0x33 TIF> >0x35 TIF> >0x33 TIF> >0x33 TIF> >0x33 TIF>CSTF present. >0x35 TIF> >0x33 TIF> >0x33 TIF> >0x35 TIF> >0x33 TIF> >0x33 TIF>  FPUnit: 6 code (BP) slots and 2 literal slots >0x35 TIF> >0x33 TIF> >0x33 TIF> >0x35 TIF> >0x35 TIF> >0x35 TIF> >0x33 TIF> >0x33 TIF> >0x35 TIF> >0x33 TIF> >0x33 TIF> >0x35 TIF> >0x33 TIF> >0x33 TIF>Found Cortex-M4 r0p0, Little endian. -- CPU is running
 -- CPU_WriteMem(4 bytes @ 0xE000EDF0) -- CPU is running -- CPU_WriteMem(4 bytes @ 0xE000EDFC) >0x35 TIF> -- CPU is running -- CPU_WriteMem(4 bytes @ 0xE000ED0C) -- CPU is running -- CPU_ReadMem(4 bytes @ 0xE000EDF0) -- CPU is running -- CPU_ReadMem(4 bytes @ 0xE000EDF0) -- CPU is running -- CPU_WriteMem(4 bytes @ 0xE000EDF0) -- CPU is running -- CPU_WriteMem(4 bytes @ 0xE000EDFC) -- CPU is running -- CPU_ReadMem(4 bytes @ 0xE000EDF0) -- CPU_ReadMem(28 bytes @ 0x20000000)
 -- CPU_WriteMem(28 bytes @ 0x20000000) -- CPU_WriteMem(28 bytes @ 0x20000000) (0232ms, 0968ms total)
T0468 001:436 JLINK_Halt()  returns 0x00 (0000ms, 1201ms total)
T0468 001:436 JLINK_IsHalted()  returns TRUE (0000ms, 1201ms total)
T0468 001:436 JLINK_ReadMemU32(0xE000EDF0, 0x0001 Items, ...) -- CPU_ReadMem(4 bytes @ 0xE000EDF0) -- Data:  03 00 03 00  returns 0x01 (0001ms, 1201ms total)
T0468 001:437 JLINK_WriteU32(0xE000EDF0, 0xA05F0003) -- CPU_WriteMem(4 bytes @ 0xE000EDF0)  returns 0x00 (0000ms, 1202ms total)
T0468 001:437 JLINK_WriteU32(0xE000EDFC, 0x01000000) -- CPU_WriteMem(4 bytes @ 0xE000EDFC)  returns 0x00 (0001ms, 1202ms total)
T0468 001:452 JLINK_GetHWStatus(...)  returns 0x00 (0001ms, 1203ms total)
T0468 001:466 JLINK_GetNumBPUnits(Type = 0xFFFFFF00)  returns 0x06 (0000ms, 1204ms total)
T0468 001:466 JLINK_GetNumBPUnits(Type = 0xF0)  returns 0x2000 (0000ms, 1204ms total)
T0468 001:466 JLINK_GetNumWPUnits()  returns 0x04 (0001ms, 1204ms total)
T0468 001:479 JLINK_GetSpeed()  returns 0xFA0 (0000ms, 1205ms total)
T0468 001:485 JLINK_ReadMemU32(0xE000E004, 0x0001 Items, ...) -- CPU_ReadMem(4 bytes @ 0xE000E004) -- Data:  02 00 00 00  returns 0x01 (0001ms, 1205ms total)
T0468 001:486 JLINK_ReadMemU32(0xE000E004, 0x0001 Items, ...) -- CPU_ReadMem(4 bytes @ 0xE000E004) -- Data:  02 00 00 00  returns 0x01 (0001ms, 1206ms total)
T0468 001:487 JLINK_WriteMem(0xE0001000, 0x001C Bytes, ...) -- Data:  01 00 00 00 00 00 00 00 00 00 00 00 00 00 00 00 ... -- CPU_WriteMem(28 bytes @ 0xE0001000)  returns 0x1C (0001ms, 1207ms total)
T0468 001:488 JLINK_ReadMem (0xE0001000, 0x001C Bytes, ...) -- CPU_ReadMem(28 bytes @ 0xE0001000) -- Data:  01 00 00 40 00 00 00 00 00 00 00 00 00 00 00 00 ...  returns 0x00 (0001ms, 1208ms total)
T0468 001:489 JLINK_Halt()  returns 0x00 (0000ms, 1209ms total)
T0468 001:489 JLINK_IsHalted()  returns TRUE (0000ms, 1209ms total)
T0468 001:496 JLINK_WriteMem(0x1FFF8000, 0x04FC Bytes, ...) -- Data:  00 BE 0A E0 0D 78 2D 06 68 40 08 24 40 00 00 D3 ... -- CPU_WriteMem(1276 bytes @ 0x1FFF8000)  returns 0x4FC (0008ms, 1209ms total)
T0468 001:505 JLINK_WriteReg(R0, 0x00000000)  returns 0x00 (0000ms, 1218ms total)
T0468 001:505 JLINK_WriteReg(R1, 0x00B71B00)  returns 0x00 (0000ms, 1218ms total)
T0468 001:505 JLINK_WriteReg(R2, 0x00000001)  returns 0x00 (0000ms, 1218ms total)
T0468 001:505 JLINK_WriteReg(R3, 0x00000000)  returns 0x00 (0000ms, 1218ms total)
T0468 001:505 JLINK_WriteReg(R4, 0x00000000)  returns 0x00 (0000ms, 1218ms total)
T0468 001:505 JLINK_WriteReg(R5, 0x00000000)  returns 0x00 (0000ms, 1218ms total)
T0468 001:505 JLINK_WriteReg(R6, 0x00000000)  returns 0x00 (0000ms, 1218ms total)
T0468 001:505 JLINK_WriteReg(R7, 0x00000000)  returns 0x00 (0000ms, 1218ms total)
T0468 001:505 JLINK_WriteReg(R8, 0x00000000)  returns 0x00 (0000ms, 1218ms total)
T0468 001:505 JLINK_WriteReg(R9, 0x1FFF84F4)  returns 0x00 (0000ms, 1218ms total)
T0468 001:505 JLINK_WriteReg(R10, 0x00000000)  returns 0x00 (0000ms, 1218ms total)
T0468 001:505 JLINK_WriteReg(R11, 0x00000000)  returns 0x00 (0000ms, 1218ms total)
T0468 001:506 JLINK_WriteReg(R12, 0x00000000)  returns 0x00 (0000ms, 1219ms total)
T0468 001:506 JLINK_WriteReg(R13, 0x1FFF8800)  returns 0x00 (0000ms, 1219ms total)
T0468 001:506 JLINK_WriteReg(R14, 0x1FFF8001)  returns 0x00 (0000ms, 1219ms total)
T0468 001:506 JLINK_WriteReg(R15, 0x1FFF8020)  returns 0x00 (0000ms, 1219ms total)
T0468 001:506 JLINK_WriteReg(XPSR, 0x01000000)  returns 0x00 (0000ms, 1219ms total)
T0468 001:506 JLINK_WriteReg(MSP, 0x1FFF8800)  returns 0x00 (0000ms, 1219ms total)
T0468 001:506 JLINK_WriteReg(PSP, 0x1FFF8800)  returns 0x00 (0000ms, 1219ms total)
T0468 001:506 JLINK_WriteReg(CFBP, 0x00000000)  returns 0x00 (0000ms, 1219ms total)
T0468 001:506 JLINK_SetBPEx(Addr = 0x1FFF8000, Type = 0xFFFFFFF2)  returns 0x00000001 (0000ms, 1219ms total)
T0468 001:506 JLINK_Go() -- CPU_WriteMem(4 bytes @ 0xE0002000) -- CPU_WriteMem(4 bytes @ 0xE0002008) -- CPU_WriteMem(4 bytes @ 0xE000200C) -- CPU_WriteMem(4 bytes @ 0xE0002010) -- CPU_WriteMem(4 bytes @ 0xE0002014) -- CPU_WriteMem(4 bytes @ 0xE0002018) -- CPU_WriteMem(4 bytes @ 0xE000201C) (0008ms, 1219ms total)
T0468 001:514 JLINK_IsHalted()  returns TRUE (0003ms, 1227ms total)
T0468 001:517 JLINK_ReadReg(R15)  returns 0x1FFF8000 (0000ms, 1227ms total)
T0468 001:517 JLINK_ClrBPEx(BPHandle = 0x00000001)  returns 0x00 (0000ms, 1227ms total)
T0468 001:517 JLINK_ReadReg(R0)  returns 0x00000000 (0000ms, 1227ms total)
T0468 001:518 JLINK_WriteReg(R0, 0x00000000)  returns 0x00 (0000ms, 1227ms total)
T0468 001:518 JLINK_WriteReg(R1, 0x00000800)  returns 0x00 (0000ms, 1227ms total)
T0468 001:518 JLINK_WriteReg(R2, 0x000000FF)  returns 0x00 (0000ms, 1227ms total)
T0468 001:518 JLINK_WriteReg(R3, 0x00000000)  returns 0x00 (0000ms, 1227ms total)
T0468 001:518 JLINK_WriteReg(R4, 0x00000000)  returns 0x00 (0000ms, 1227ms total)
T0468 001:518 JLINK_WriteReg(R5, 0x00000000)  returns 0x00 (0000ms, 1227ms total)
T0468 001:518 JLINK_WriteReg(R6, 0x00000000)  returns 0x00 (0000ms, 1227ms total)
T0468 001:518 JLINK_WriteReg(R7, 0x00000000)  returns 0x00 (0000ms, 1227ms total)
T0468 001:518 JLINK_WriteReg(R8, 0x00000000)  returns 0x00 (0000ms, 1227ms total)
T0468 001:518 JLINK_WriteReg(R9, 0x1FFF84F4)  returns 0x00 (0001ms, 1227ms total)
T0468 001:519 JLINK_WriteReg(R10, 0x00000000)  returns 0x00 (0000ms, 1228ms total)
T0468 001:519 JLINK_WriteReg(R11, 0x00000000)  returns 0x00 (0000ms, 1228ms total)
T0468 001:519 JLINK_WriteReg(R12, 0x00000000)  returns 0x00 (0000ms, 1228ms total)
T0468 001:519 JLINK_WriteReg(R13, 0x1FFF8800)  returns 0x00 (0000ms, 1228ms total)
T0468 001:519 JLINK_WriteReg(R14, 0x1FFF8001)  returns 0x00 (0000ms, 1228ms total)
T0468 001:519 JLINK_WriteReg(R15, 0x1FFF8078)  returns 0x00 (0000ms, 1228ms total)
T0468 001:519 JLINK_WriteReg(XPSR, 0x01000000)  returns 0x00 (0000ms, 1228ms total)
T0468 001:519 JLINK_WriteReg(MSP, 0x1FFF8800)  returns 0x00 (0000ms, 1228ms total)
T0468 001:519 JLINK_WriteReg(PSP, 0x1FFF8800)  returns 0x00 (0000ms, 1228ms total)
T0468 001:519 JLINK_WriteReg(CFBP, 0x00000000)  returns 0x00 (0000ms, 1228ms total)
T0468 001:519 JLINK_SetBPEx(Addr = 0x1FFF8000, Type = 0xFFFFFFF2)  returns 0x00000002 (0000ms, 1228ms total)
T0468 001:519 JLINK_Go() -- CPU_WriteMem(4 bytes @ 0xE0002008) -- CPU_WriteMem(4 bytes @ 0xE000200C) -- CPU_WriteMem(4 bytes @ 0xE0002010) -- CPU_WriteMem(4 bytes @ 0xE0002014) -- CPU_WriteMem(4 bytes @ 0xE0002018) -- CPU_WriteMem(4 bytes @ 0xE000201C) (0006ms, 1228ms total)
T0468 001:525 JLINK_IsHalted()  returns TRUE (0002ms, 1234ms total)
T0468 001:527 JLINK_ReadReg(R15)  returns 0x1FFF8000 (0000ms, 1234ms total)
T0468 001:527 JLINK_ClrBPEx(BPHandle = 0x00000002)  returns 0x00 (0001ms, 1234ms total)
T0468 001:528 JLINK_ReadReg(R0)  returns 0x00000001 (0000ms, 1235ms total)
T0468 001:528 JLINK_WriteReg(R0, 0x00000000)  returns 0x00 (0000ms, 1235ms total)
T0468 001:528 JLINK_WriteReg(R1, 0x00000800)  returns 0x00 (0000ms, 1235ms total)
T0468 001:528 JLINK_WriteReg(R2, 0x000000FF)  returns 0x00 (0000ms, 1235ms total)
T0468 001:528 JLINK_WriteReg(R3, 0x00000000)  returns 0x00 (0000ms, 1235ms total)
T0468 001:528 JLINK_WriteReg(R4, 0x00000000)  returns 0x00 (0000ms, 1235ms total)
T0468 001:528 JLINK_WriteReg(R5, 0x00000000)  returns 0x00 (0000ms, 1235ms total)
T0468 001:528 JLINK_WriteReg(R6, 0x00000000)  returns 0x00 (0000ms, 1235ms total)
T0468 001:528 JLINK_WriteReg(R7, 0x00000000)  returns 0x00 (0000ms, 1235ms total)
T0468 001:528 JLINK_WriteReg(R8, 0x00000000)  returns 0x00 (0000ms, 1235ms total)
T0468 001:528 JLINK_WriteReg(R9, 0x1FFF84F4)  returns 0x00 (0000ms, 1235ms total)
T0468 001:528 JLINK_WriteReg(R10, 0x00000000)  returns 0x00 (0000ms, 1235ms total)
T0468 001:529 JLINK_WriteReg(R11, 0x00000000)  returns 0x00 (0000ms, 1236ms total)
T0468 001:529 JLINK_WriteReg(R12, 0x00000000)  returns 0x00 (0000ms, 1236ms total)
T0468 001:529 JLINK_WriteReg(R13, 0x1FFF8800)  returns 0x00 (0000ms, 1236ms total)
T0468 001:529 JLINK_WriteReg(R14, 0x1FFF8001)  returns 0x00 (0000ms, 1236ms total)
T0468 001:529 JLINK_WriteReg(R15, 0x1FFF80B0)  returns 0x00 (0000ms, 1236ms total)
T0468 001:529 JLINK_WriteReg(XPSR, 0x01000000)  returns 0x00 (0000ms, 1236ms total)
T0468 001:529 JLINK_WriteReg(MSP, 0x1FFF8800)  returns 0x00 (0000ms, 1236ms total)
T0468 001:529 JLINK_WriteReg(PSP, 0x1FFF8800)  returns 0x00 (0000ms, 1236ms total)
T0468 001:529 JLINK_WriteReg(CFBP, 0x00000000)  returns 0x00 (0000ms, 1236ms total)
T0468 001:529 JLINK_SetBPEx(Addr = 0x1FFF8000, Type = 0xFFFFFFF2)  returns 0x00000003 (0000ms, 1236ms total)
T0468 001:529 JLINK_Go() -- CPU_WriteMem(4 bytes @ 0xE0002008) -- CPU_WriteMem(4 bytes @ 0xE000200C) -- CPU_WriteMem(4 bytes @ 0xE0002010) -- CPU_WriteMem(4 bytes @ 0xE0002014) -- CPU_WriteMem(4 bytes @ 0xE0002018) -- CPU_WriteMem(4 bytes @ 0xE000201C) (0006ms, 1236ms total)
T0468 001:535 JLINK_IsHalted()  returns FALSE (0000ms, 1242ms total)
T0468 001:585 JLINK_IsHalted()  returns TRUE (0002ms, 1242ms total)
T0468 001:587 JLINK_ReadReg(R15)  returns 0x1FFF8000 (0000ms, 1242ms total)
T0468 001:588 JLINK_ClrBPEx(BPHandle = 0x00000003)  returns 0x00 (0000ms, 1243ms total)
T0468 001:588 JLINK_ReadReg(R0)  returns 0x00000000 (0000ms, 1243ms total)
T0468 001:589 JLINK_WriteReg(R0, 0x00000800)  returns 0x00 (0000ms, 1243ms total)
T0468 001:589 JLINK_WriteReg(R1, 0x00000800)  returns 0x00 (0000ms, 1243ms total)
T0468 001:589 JLINK_WriteReg(R2, 0x000000FF)  returns 0x00 (0000ms, 1243ms total)
T0468 001:589 JLINK_WriteReg(R3, 0x00000000)  returns 0x00 (0000ms, 1243ms total)
T0468 001:589 JLINK_WriteReg(R4, 0x00000000)  returns 0x00 (0000ms, 1243ms total)
T0468 001:589 JLINK_WriteReg(R5, 0x00000000)  returns 0x00 (0000ms, 1243ms total)
T0468 001:589 JLINK_WriteReg(R6, 0x00000000)  returns 0x00 (0000ms, 1243ms total)
T0468 001:589 JLINK_WriteReg(R7, 0x00000000)  returns 0x00 (0001ms, 1243ms total)
T0468 001:590 JLINK_WriteReg(R8, 0x00000000)  returns 0x00 (0000ms, 1244ms total)
T0468 001:590 JLINK_WriteReg(R9, 0x1FFF84F4)  returns 0x00 (0000ms, 1244ms total)
T0468 001:590 JLINK_WriteReg(R10, 0x00000000)  returns 0x00 (0000ms, 1244ms total)
T0468 001:590 JLINK_WriteReg(R11, 0x00000000)  returns 0x00 (0000ms, 1244ms total)
T0468 001:590 JLINK_WriteReg(R12, 0x00000000)  returns 0x00 (0000ms, 1244ms total)
T0468 001:590 JLINK_WriteReg(R13, 0x1FFF8800)  returns 0x00 (0000ms, 1244ms total)
T0468 001:590 JLINK_WriteReg(R14, 0x1FFF8001)  returns 0x00 (0000ms, 1244ms total)
T0468 001:590 JLINK_WriteReg(R15, 0x1FFF8078)  returns 0x00 (0000ms, 1244ms total)
T0468 001:590 JLINK_WriteReg(XPSR, 0x01000000)  returns 0x00 (0000ms, 1244ms total)
T0468 001:590 JLINK_WriteReg(MSP, 0x1FFF8800)  returns 0x00 (0000ms, 1244ms total)
T0468 001:590 JLINK_WriteReg(PSP, 0x1FFF8800)  returns 0x00 (0001ms, 1244ms total)
T0468 001:591 JLINK_WriteReg(CFBP, 0x00000000)  returns 0x00 (0000ms, 1245ms total)
T0468 001:591 JLINK_SetBPEx(Addr = 0x1FFF8000, Type = 0xFFFFFFF2)  returns 0x00000004 (0000ms, 1245ms total)
T0468 001:591 JLINK_Go() -- CPU_WriteMem(4 bytes @ 0xE0002008) -- CPU_WriteMem(4 bytes @ 0xE000200C) -- CPU_WriteMem(4 bytes @ 0xE0002010) -- CPU_WriteMem(4 bytes @ 0xE0002014) -- CPU_WriteMem(4 bytes @ 0xE0002018) -- CPU_WriteMem(4 bytes @ 0xE000201C) (0006ms, 1245ms total)
T0468 001:597 JLINK_IsHalted()  returns TRUE (0003ms, 1251ms total)
T0468 001:600 JLINK_ReadReg(R15)  returns 0x1FFF8000 (0000ms, 1251ms total)
T0468 001:600 JLINK_ClrBPEx(BPHandle = 0x00000004)  returns 0x00 (0000ms, 1251ms total)
T0468 001:600 JLINK_ReadReg(R0)  returns 0x00000001 (0000ms, 1251ms total)
T0468 001:600 JLINK_WriteReg(R0, 0x00000800)  returns 0x00 (0000ms, 1251ms total)
T0468 001:600 JLINK_WriteReg(R1, 0x00000800)  returns 0x00 (0000ms, 1251ms total)
T0468 001:600 JLINK_WriteReg(R2, 0x000000FF)  returns 0x00 (0001ms, 1251ms total)
T0468 001:601 JLINK_WriteReg(R3, 0x00000000)  returns 0x00 (0000ms, 1252ms total)
T0468 001:601 JLINK_WriteReg(R4, 0x00000000)  returns 0x00 (0000ms, 1252ms total)
T0468 001:601 JLINK_WriteReg(R5, 0x00000000)  returns 0x00 (0000ms, 1252ms total)
T0468 001:601 JLINK_WriteReg(R6, 0x00000000)  returns 0x00 (0000ms, 1252ms total)
T0468 001:601 JLINK_WriteReg(R7, 0x00000000)  returns 0x00 (0000ms, 1252ms total)
T0468 001:601 JLINK_WriteReg(R8, 0x00000000)  returns 0x00 (0000ms, 1252ms total)
T0468 001:601 JLINK_WriteReg(R9, 0x1FFF84F4)  returns 0x00 (0000ms, 1252ms total)
T0468 001:601 JLINK_WriteReg(R10, 0x00000000)  returns 0x00 (0000ms, 1252ms total)
T0468 001:601 JLINK_WriteReg(R11, 0x00000000)  returns 0x00 (0000ms, 1252ms total)
T0468 001:601 JLINK_WriteReg(R12, 0x00000000)  returns 0x00 (0000ms, 1252ms total)
T0468 001:601 JLINK_WriteReg(R13, 0x1FFF8800)  returns 0x00 (0000ms, 1252ms total)
T0468 001:601 JLINK_WriteReg(R14, 0x1FFF8001)  returns 0x00 (0000ms, 1252ms total)
T0468 001:601 JLINK_WriteReg(R15, 0x1FFF80B0)  returns 0x00 (0000ms, 1252ms total)
T0468 001:601 JLINK_WriteReg(XPSR, 0x01000000)  returns 0x00 (0001ms, 1252ms total)
T0468 001:602 JLINK_WriteReg(MSP, 0x1FFF8800)  returns 0x00 (0000ms, 1253ms total)
T0468 001:602 JLINK_WriteReg(PSP, 0x1FFF8800)  returns 0x00 (0000ms, 1253ms total)
T0468 001:602 JLINK_WriteReg(CFBP, 0x00000000)  returns 0x00 (0000ms, 1253ms total)
T0468 001:602 JLINK_SetBPEx(Addr = 0x1FFF8000, Type = 0xFFFFFFF2)  returns 0x00000005 (0000ms, 1253ms total)
T0468 001:602 JLINK_Go() -- CPU_WriteMem(4 bytes @ 0xE0002008) -- CPU_WriteMem(4 bytes @ 0xE000200C) -- CPU_WriteMem(4 bytes @ 0xE0002010) -- CPU_WriteMem(4 bytes @ 0xE0002014) -- CPU_WriteMem(4 bytes @ 0xE0002018) -- CPU_WriteMem(4 bytes @ 0xE000201C) (0005ms, 1253ms total)
T0468 001:607 JLINK_IsHalted()  returns FALSE (0000ms, 1258ms total)
T0468 001:657 JLINK_IsHalted()  returns TRUE (0002ms, 1258ms total)
T0468 001:659 JLINK_ReadReg(R15)  returns 0x1FFF8000 (0000ms, 1258ms total)
T0468 001:659 JLINK_ClrBPEx(BPHandle = 0x00000005)  returns 0x00 (0000ms, 1258ms total)
T0468 001:659 JLINK_ReadReg(R0)  returns 0x00000000 (0001ms, 1258ms total)
T0468 001:661 JLINK_WriteReg(R0, 0x00001000)  returns 0x00 (0000ms, 1259ms total)
T0468 001:661 JLINK_WriteReg(R1, 0x00000800)  returns 0x00 (0000ms, 1259ms total)
T0468 001:661 JLINK_WriteReg(R2, 0x000000FF)  returns 0x00 (0000ms, 1259ms total)
T0468 001:661 JLINK_WriteReg(R3, 0x00000000)  returns 0x00 (0000ms, 1259ms total)
T0468 001:661 JLINK_WriteReg(R4, 0x00000000)  returns 0x00 (0000ms, 1259ms total)
T0468 001:661 JLINK_WriteReg(R5, 0x00000000)  returns 0x00 (0001ms, 1259ms total)
T0468 001:662 JLINK_WriteReg(R6, 0x00000000)  returns 0x00 (0000ms, 1260ms total)
T0468 001:662 JLINK_WriteReg(R7, 0x00000000)  returns 0x00 (0000ms, 1260ms total)
T0468 001:662 JLINK_WriteReg(R8, 0x00000000)  returns 0x00 (0000ms, 1260ms total)
T0468 001:662 JLINK_WriteReg(R9, 0x1FFF84F4)  returns 0x00 (0000ms, 1260ms total)
T0468 001:662 JLINK_WriteReg(R10, 0x00000000)  returns 0x00 (0000ms, 1260ms total)
T0468 001:662 JLINK_WriteReg(R11, 0x00000000)  returns 0x00 (0000ms, 1260ms total)
T0468 001:662 JLINK_WriteReg(R12, 0x00000000)  returns 0x00 (0001ms, 1260ms total)
T0468 001:663 JLINK_WriteReg(R13, 0x1FFF8800)  returns 0x00 (0000ms, 1261ms total)
T0468 001:663 JLINK_WriteReg(R14, 0x1FFF8001)  returns 0x00 (0000ms, 1261ms total)
T0468 001:663 JLINK_WriteReg(R15, 0x1FFF8078)  returns 0x00 (0000ms, 1261ms total)
T0468 001:663 JLINK_WriteReg(XPSR, 0x01000000)  returns 0x00 (0000ms, 1261ms total)
T0468 001:663 JLINK_WriteReg(MSP, 0x1FFF8800)  returns 0x00 (0000ms, 1261ms total)
T0468 001:663 JLINK_WriteReg(PSP, 0x1FFF8800)  returns 0x00 (0000ms, 1261ms total)
T0468 001:663 JLINK_WriteReg(CFBP, 0x00000000)  returns 0x00 (0000ms, 1261ms total)
T0468 001:663 JLINK_SetBPEx(Addr = 0x1FFF8000, Type = 0xFFFFFFF2)  returns 0x00000006 (0000ms, 1261ms total)
T0468 001:663 JLINK_Go() -- CPU_WriteMem(4 bytes @ 0xE0002008) -- CPU_WriteMem(4 bytes @ 0xE000200C) -- CPU_WriteMem(4 bytes @ 0xE0002010) -- CPU_WriteMem(4 bytes @ 0xE0002014) -- CPU_WriteMem(4 bytes @ 0xE0002018) -- CPU_WriteMem(4 bytes @ 0xE000201C) (0005ms, 1261ms total)
T0468 001:669 JLINK_IsHalted()  returns TRUE (0002ms, 1267ms total)
T0468 001:671 JLINK_ReadReg(R15)  returns 0x1FFF8000 (0000ms, 1267ms total)
T0468 001:671 JLINK_ClrBPEx(BPHandle = 0x00000006)  returns 0x00 (0000ms, 1267ms total)
T0468 001:671 JLINK_ReadReg(R0)  returns 0x00000001 (0000ms, 1267ms total)
T0468 001:671 JLINK_WriteReg(R0, 0x00001000)  returns 0x00 (0000ms, 1267ms total)
T0468 001:672 JLINK_WriteReg(R1, 0x00000800)  returns 0x00 (0000ms, 1267ms total)
T0468 001:672 JLINK_WriteReg(R2, 0x000000FF)  returns 0x00 (0000ms, 1267ms total)
T0468 001:672 JLINK_WriteReg(R3, 0x00000000)  returns 0x00 (0000ms, 1267ms total)
T0468 001:672 JLINK_WriteReg(R4, 0x00000000)  returns 0x00 (0000ms, 1267ms total)
T0468 001:672 JLINK_WriteReg(R5, 0x00000000)  returns 0x00 (0000ms, 1267ms total)
T0468 001:672 JLINK_WriteReg(R6, 0x00000000)  returns 0x00 (0000ms, 1267ms total)
T0468 001:672 JLINK_WriteReg(R7, 0x00000000)  returns 0x00 (0000ms, 1267ms total)
T0468 001:672 JLINK_WriteReg(R8, 0x00000000)  returns 0x00 (0000ms, 1267ms total)
T0468 001:672 JLINK_WriteReg(R9, 0x1FFF84F4)  returns 0x00 (0000ms, 1267ms total)
T0468 001:672 JLINK_WriteReg(R10, 0x00000000)  returns 0x00 (0000ms, 1267ms total)
T0468 001:672 JLINK_WriteReg(R11, 0x00000000)  returns 0x00 (0000ms, 1267ms total)
T0468 001:672 JLINK_WriteReg(R12, 0x00000000)  returns 0x00 (0000ms, 1267ms total)
T0468 001:672 JLINK_WriteReg(R13, 0x1FFF8800)  returns 0x00 (0000ms, 1267ms total)
T0468 001:672 JLINK_WriteReg(R14, 0x1FFF8001)  returns 0x00 (0000ms, 1267ms total)
T0468 001:673 JLINK_WriteReg(R15, 0x1FFF80B0)  returns 0x00 (0000ms, 1268ms total)
T0468 001:673 JLINK_WriteReg(XPSR, 0x01000000)  returns 0x00 (0000ms, 1268ms total)
T0468 001:673 JLINK_WriteReg(MSP, 0x1FFF8800)  returns 0x00 (0000ms, 1268ms total)
T0468 001:673 JLINK_WriteReg(PSP, 0x1FFF8800)  returns 0x00 (0000ms, 1268ms total)
T0468 001:673 JLINK_WriteReg(CFBP, 0x00000000)  returns 0x00 (0000ms, 1268ms total)
T0468 001:673 JLINK_SetBPEx(Addr = 0x1FFF8000, Type = 0xFFFFFFF2)  returns 0x00000007 (0000ms, 1268ms total)
T0468 001:673 JLINK_Go() -- CPU_WriteMem(4 bytes @ 0xE0002008) -- CPU_WriteMem(4 bytes @ 0xE000200C) -- CPU_WriteMem(4 bytes @ 0xE0002010) -- CPU_WriteMem(4 bytes @ 0xE0002014) -- CPU_WriteMem(4 bytes @ 0xE0002018) -- CPU_WriteMem(4 bytes @ 0xE000201C) (0007ms, 1268ms total)
T0468 001:680 JLINK_IsHalted()  returns FALSE (0000ms, 1275ms total)
T0468 001:730 JLINK_IsHalted()  returns TRUE (0003ms, 1275ms total)
T0468 001:733 JLINK_ReadReg(R15)  returns 0x1FFF8000 (0000ms, 1275ms total)
T0468 001:733 JLINK_ClrBPEx(BPHandle = 0x00000007)  returns 0x00 (0000ms, 1275ms total)
T0468 001:733 JLINK_ReadReg(R0)  returns 0x00000000 (0000ms, 1275ms total)
T0468 001:735 JLINK_WriteReg(R0, 0x00001800)  returns 0x00 (0000ms, 1275ms total)
T0468 001:735 JLINK_WriteReg(R1, 0x00000800)  returns 0x00 (0000ms, 1275ms total)
T0468 001:735 JLINK_WriteReg(R2, 0x000000FF)  returns 0x00 (0000ms, 1275ms total)
T0468 001:735 JLINK_WriteReg(R3, 0x00000000)  returns 0x00 (0000ms, 1275ms total)
T0468 001:735 JLINK_WriteReg(R4, 0x00000000)  returns 0x00 (0000ms, 1275ms total)
T0468 001:735 JLINK_WriteReg(R5, 0x00000000)  returns 0x00 (0000ms, 1275ms total)
T0468 001:735 JLINK_WriteReg(R6, 0x00000000)  returns 0x00 (0000ms, 1275ms total)
T0468 001:735 JLINK_WriteReg(R7, 0x00000000)  returns 0x00 (0000ms, 1275ms total)
T0468 001:735 JLINK_WriteReg(R8, 0x00000000)  returns 0x00 (0000ms, 1275ms total)
T0468 001:735 JLINK_WriteReg(R9, 0x1FFF84F4)  returns 0x00 (0000ms, 1275ms total)
T0468 001:735 JLINK_WriteReg(R10, 0x00000000)  returns 0x00 (0000ms, 1275ms total)
T0468 001:735 JLINK_WriteReg(R11, 0x00000000)  returns 0x00 (0000ms, 1275ms total)
T0468 001:735 JLINK_WriteReg(R12, 0x00000000)  returns 0x00 (0000ms, 1275ms total)
T0468 001:735 JLINK_WriteReg(R13, 0x1FFF8800)  returns 0x00 (0001ms, 1275ms total)
T0468 001:736 JLINK_WriteReg(R14, 0x1FFF8001)  returns 0x00 (0000ms, 1276ms total)
T0468 001:736 JLINK_WriteReg(R15, 0x1FFF8078)  returns 0x00 (0000ms, 1276ms total)
T0468 001:736 JLINK_WriteReg(XPSR, 0x01000000)  returns 0x00 (0000ms, 1276ms total)
T0468 001:736 JLINK_WriteReg(MSP, 0x1FFF8800)  returns 0x00 (0000ms, 1276ms total)
T0468 001:736 JLINK_WriteReg(PSP, 0x1FFF8800)  returns 0x00 (0000ms, 1276ms total)
T0468 001:736 JLINK_WriteReg(CFBP, 0x00000000)  returns 0x00 (0000ms, 1276ms total)
T0468 001:736 JLINK_SetBPEx(Addr = 0x1FFF8000, Type = 0xFFFFFFF2)  returns 0x00000008 (0000ms, 1276ms total)
T0468 001:736 JLINK_Go() -- CPU_WriteMem(4 bytes @ 0xE0002008) -- CPU_WriteMem(4 bytes @ 0xE000200C) -- CPU_WriteMem(4 bytes @ 0xE0002010) -- CPU_WriteMem(4 bytes @ 0xE0002014) -- CPU_WriteMem(4 bytes @ 0xE0002018) -- CPU_WriteMem(4 bytes @ 0xE000201C) (0006ms, 1276ms total)
T0468 001:742 JLINK_IsHalted()  returns TRUE (0003ms, 1282ms total)
T0468 001:745 JLINK_ReadReg(R15)  returns 0x1FFF8000 (0000ms, 1282ms total)
T0468 001:745 JLINK_ClrBPEx(BPHandle = 0x00000008)  returns 0x00 (0000ms, 1282ms total)
T0468 001:745 JLINK_ReadReg(R0)  returns 0x00000001 (0000ms, 1282ms total)
T0468 001:745 JLINK_WriteReg(R0, 0x00001800)  returns 0x00 (0000ms, 1282ms total)
T0468 001:745 JLINK_WriteReg(R1, 0x00000800)  returns 0x00 (0000ms, 1282ms total)
T0468 001:745 JLINK_WriteReg(R2, 0x000000FF)  returns 0x00 (0000ms, 1282ms total)
T0468 001:745 JLINK_WriteReg(R3, 0x00000000)  returns 0x00 (0000ms, 1282ms total)
T0468 001:745 JLINK_WriteReg(R4, 0x00000000)  returns 0x00 (0000ms, 1282ms total)
T0468 001:745 JLINK_WriteReg(R5, 0x00000000)  returns 0x00 (0000ms, 1282ms total)
T0468 001:745 JLINK_WriteReg(R6, 0x00000000)  returns 0x00 (0001ms, 1282ms total)
T0468 001:746 JLINK_WriteReg(R7, 0x00000000)  returns 0x00 (0000ms, 1283ms total)
T0468 001:746 JLINK_WriteReg(R8, 0x00000000)  returns 0x00 (0000ms, 1283ms total)
T0468 001:746 JLINK_WriteReg(R9, 0x1FFF84F4)  returns 0x00 (0000ms, 1283ms total)
T0468 001:746 JLINK_WriteReg(R10, 0x00000000)  returns 0x00 (0000ms, 1283ms total)
T0468 001:746 JLINK_WriteReg(R11, 0x00000000)  returns 0x00 (0000ms, 1283ms total)
T0468 001:746 JLINK_WriteReg(R12, 0x00000000)  returns 0x00 (0000ms, 1283ms total)
T0468 001:746 JLINK_WriteReg(R13, 0x1FFF8800)  returns 0x00 (0000ms, 1283ms total)
T0468 001:746 JLINK_WriteReg(R14, 0x1FFF8001)  returns 0x00 (0000ms, 1283ms total)
T0468 001:746 JLINK_WriteReg(R15, 0x1FFF80B0)  returns 0x00 (0000ms, 1283ms total)
T0468 001:746 JLINK_WriteReg(XPSR, 0x01000000)  returns 0x00 (0000ms, 1283ms total)
T0468 001:746 JLINK_WriteReg(MSP, 0x1FFF8800)  returns 0x00 (0000ms, 1283ms total)
T0468 001:746 JLINK_WriteReg(PSP, 0x1FFF8800)  returns 0x00 (0001ms, 1283ms total)
T0468 001:747 JLINK_WriteReg(CFBP, 0x00000000)  returns 0x00 (0000ms, 1284ms total)
T0468 001:747 JLINK_SetBPEx(Addr = 0x1FFF8000, Type = 0xFFFFFFF2)  returns 0x00000009 (0000ms, 1284ms total)
T0468 001:747 JLINK_Go() -- CPU_WriteMem(4 bytes @ 0xE0002008) -- CPU_WriteMem(4 bytes @ 0xE000200C) -- CPU_WriteMem(4 bytes @ 0xE0002010) -- CPU_WriteMem(4 bytes @ 0xE0002014) -- CPU_WriteMem(4 bytes @ 0xE0002018) -- CPU_WriteMem(4 bytes @ 0xE000201C) (0006ms, 1284ms total)
T0468 001:753 JLINK_IsHalted()  returns FALSE (0000ms, 1290ms total)
T0468 001:803 JLINK_IsHalted()  returns TRUE (0003ms, 1290ms total)
T0468 001:806 JLINK_ReadReg(R15)  returns 0x1FFF8000 (0000ms, 1290ms total)
T0468 001:806 JLINK_ClrBPEx(BPHandle = 0x00000009)  returns 0x00 (0000ms, 1290ms total)
T0468 001:806 JLINK_ReadReg(R0)  returns 0x00000000 (0000ms, 1290ms total)
T0468 001:807 JLINK_WriteReg(R0, 0x00002000)  returns 0x00 (0000ms, 1290ms total)
T0468 001:807 JLINK_WriteReg(R1, 0x00000800)  returns 0x00 (0000ms, 1290ms total)
T0468 001:807 JLINK_WriteReg(R2, 0x000000FF)  returns 0x00 (0000ms, 1290ms total)
T0468 001:807 JLINK_WriteReg(R3, 0x00000000)  returns 0x00 (0000ms, 1290ms total)
T0468 001:807 JLINK_WriteReg(R4, 0x00000000)  returns 0x00 (0001ms, 1290ms total)
T0468 001:808 JLINK_WriteReg(R5, 0x00000000)  returns 0x00 (0000ms, 1291ms total)
T0468 001:808 JLINK_WriteReg(R6, 0x00000000)  returns 0x00 (0000ms, 1291ms total)
T0468 001:808 JLINK_WriteReg(R7, 0x00000000)  returns 0x00 (0000ms, 1291ms total)
T0468 001:808 JLINK_WriteReg(R8, 0x00000000)  returns 0x00 (0000ms, 1291ms total)
T0468 001:808 JLINK_WriteReg(R9, 0x1FFF84F4)  returns 0x00 (0000ms, 1291ms total)
T0468 001:808 JLINK_WriteReg(R10, 0x00000000)  returns 0x00 (0000ms, 1291ms total)
T0468 001:808 JLINK_WriteReg(R11, 0x00000000)  returns 0x00 (0000ms, 1291ms total)
T0468 001:808 JLINK_WriteReg(R12, 0x00000000)  returns 0x00 (0000ms, 1291ms total)
T0468 001:808 JLINK_WriteReg(R13, 0x1FFF8800)  returns 0x00 (0000ms, 1291ms total)
T0468 001:808 JLINK_WriteReg(R14, 0x1FFF8001)  returns 0x00 (0000ms, 1291ms total)
T0468 001:808 JLINK_WriteReg(R15, 0x1FFF8078)  returns 0x00 (0000ms, 1291ms total)
T0468 001:808 JLINK_WriteReg(XPSR, 0x01000000)  returns 0x00 (0000ms, 1291ms total)
T0468 001:808 JLINK_WriteReg(MSP, 0x1FFF8800)  returns 0x00 (0000ms, 1291ms total)
T0468 001:808 JLINK_WriteReg(PSP, 0x1FFF8800)  returns 0x00 (0001ms, 1291ms total)
T0468 001:809 JLINK_WriteReg(CFBP, 0x00000000)  returns 0x00 (0000ms, 1292ms total)
T0468 001:809 JLINK_SetBPEx(Addr = 0x1FFF8000, Type = 0xFFFFFFF2)  returns 0x0000000A (0000ms, 1292ms total)
T0468 001:809 JLINK_Go() -- CPU_WriteMem(4 bytes @ 0xE0002008) -- CPU_WriteMem(4 bytes @ 0xE000200C) -- CPU_WriteMem(4 bytes @ 0xE0002010) -- CPU_WriteMem(4 bytes @ 0xE0002014) -- CPU_WriteMem(4 bytes @ 0xE0002018) -- CPU_WriteMem(4 bytes @ 0xE000201C) (0006ms, 1292ms total)
T0468 001:815 JLINK_IsHalted()  returns TRUE (0003ms, 1298ms total)
T0468 001:818 JLINK_ReadReg(R15)  returns 0x1FFF8000 (0000ms, 1298ms total)
T0468 001:818 JLINK_ClrBPEx(BPHandle = 0x0000000A)  returns 0x00 (0000ms, 1298ms total)
T0468 001:818 JLINK_ReadReg(R0)  returns 0x00000001 (0000ms, 1298ms total)
T0468 001:818 JLINK_WriteReg(R0, 0x00002000)  returns 0x00 (0000ms, 1298ms total)
T0468 001:818 JLINK_WriteReg(R1, 0x00000800)  returns 0x00 (0000ms, 1298ms total)
T0468 001:818 JLINK_WriteReg(R2, 0x000000FF)  returns 0x00 (0000ms, 1298ms total)
T0468 001:818 JLINK_WriteReg(R3, 0x00000000)  returns 0x00 (0000ms, 1298ms total)
T0468 001:818 JLINK_WriteReg(R4, 0x00000000)  returns 0x00 (0000ms, 1298ms total)
T0468 001:818 JLINK_WriteReg(R5, 0x00000000)  returns 0x00 (0000ms, 1298ms total)
T0468 001:818 JLINK_WriteReg(R6, 0x00000000)  returns 0x00 (0000ms, 1298ms total)
T0468 001:818 JLINK_WriteReg(R7, 0x00000000)  returns 0x00 (0000ms, 1298ms total)
T0468 001:818 JLINK_WriteReg(R8, 0x00000000)  returns 0x00 (0001ms, 1298ms total)
T0468 001:819 JLINK_WriteReg(R9, 0x1FFF84F4)  returns 0x00 (0000ms, 1299ms total)
T0468 001:819 JLINK_WriteReg(R10, 0x00000000)  returns 0x00 (0000ms, 1299ms total)
T0468 001:819 JLINK_WriteReg(R11, 0x00000000)  returns 0x00 (0000ms, 1299ms total)
T0468 001:819 JLINK_WriteReg(R12, 0x00000000)  returns 0x00 (0000ms, 1299ms total)
T0468 001:819 JLINK_WriteReg(R13, 0x1FFF8800)  returns 0x00 (0000ms, 1299ms total)
T0468 001:819 JLINK_WriteReg(R14, 0x1FFF8001)  returns 0x00 (0000ms, 1299ms total)
T0468 001:819 JLINK_WriteReg(R15, 0x1FFF80B0)  returns 0x00 (0000ms, 1299ms total)
T0468 001:819 JLINK_WriteReg(XPSR, 0x01000000)  returns 0x00 (0000ms, 1299ms total)
T0468 001:819 JLINK_WriteReg(MSP, 0x1FFF8800)  returns 0x00 (0000ms, 1299ms total)
T0468 001:819 JLINK_WriteReg(PSP, 0x1FFF8800)  returns 0x00 (0000ms, 1299ms total)
T0468 001:819 JLINK_WriteReg(CFBP, 0x00000000)  returns 0x00 (0000ms, 1299ms total)
T0468 001:819 JLINK_SetBPEx(Addr = 0x1FFF8000, Type = 0xFFFFFFF2)  returns 0x0000000B (0000ms, 1299ms total)
T0468 001:819 JLINK_Go() -- CPU_WriteMem(4 bytes @ 0xE0002008) -- CPU_WriteMem(4 bytes @ 0xE000200C) -- CPU_WriteMem(4 bytes @ 0xE0002010) -- CPU_WriteMem(4 bytes @ 0xE0002014) -- CPU_WriteMem(4 bytes @ 0xE0002018) -- CPU_WriteMem(4 bytes @ 0xE000201C) (0006ms, 1299ms total)
T0468 001:825 JLINK_IsHalted()  returns FALSE (0001ms, 1305ms total)
T0468 001:876 JLINK_IsHalted()  returns TRUE (0003ms, 1305ms total)
T0468 001:879 JLINK_ReadReg(R15)  returns 0x1FFF8000 (0000ms, 1305ms total)
T0468 001:879 JLINK_ClrBPEx(BPHandle = 0x0000000B)  returns 0x00 (0000ms, 1305ms total)
T0468 001:879 JLINK_ReadReg(R0)  returns 0x00000000 (0000ms, 1305ms total)
T0468 001:880 JLINK_WriteReg(R0, 0x00002800)  returns 0x00 (0000ms, 1305ms total)
T0468 001:880 JLINK_WriteReg(R1, 0x00000800)  returns 0x00 (0000ms, 1305ms total)
T0468 001:880 JLINK_WriteReg(R2, 0x000000FF)  returns 0x00 (0000ms, 1305ms total)
T0468 001:880 JLINK_WriteReg(R3, 0x00000000)  returns 0x00 (0000ms, 1305ms total)
T0468 001:880 JLINK_WriteReg(R4, 0x00000000)  returns 0x00 (0001ms, 1305ms total)
T0468 001:881 JLINK_WriteReg(R5, 0x00000000)  returns 0x00 (0000ms, 1306ms total)
T0468 001:881 JLINK_WriteReg(R6, 0x00000000)  returns 0x00 (0000ms, 1306ms total)
T0468 001:881 JLINK_WriteReg(R7, 0x00000000)  returns 0x00 (0000ms, 1306ms total)
T0468 001:881 JLINK_WriteReg(R8, 0x00000000)  returns 0x00 (0000ms, 1306ms total)
T0468 001:881 JLINK_WriteReg(R9, 0x1FFF84F4)  returns 0x00 (0000ms, 1306ms total)
T0468 001:881 JLINK_WriteReg(R10, 0x00000000)  returns 0x00 (0000ms, 1306ms total)
T0468 001:881 JLINK_WriteReg(R11, 0x00000000)  returns 0x00 (0000ms, 1306ms total)
T0468 001:881 JLINK_WriteReg(R12, 0x00000000)  returns 0x00 (0000ms, 1306ms total)
T0468 001:881 JLINK_WriteReg(R13, 0x1FFF8800)  returns 0x00 (0000ms, 1306ms total)
T0468 001:881 JLINK_WriteReg(R14, 0x1FFF8001)  returns 0x00 (0000ms, 1306ms total)
T0468 001:881 JLINK_WriteReg(R15, 0x1FFF8078)  returns 0x00 (0000ms, 1306ms total)
T0468 001:881 JLINK_WriteReg(XPSR, 0x01000000)  returns 0x00 (0000ms, 1306ms total)
T0468 001:881 JLINK_WriteReg(MSP, 0x1FFF8800)  returns 0x00 (0000ms, 1306ms total)
T0468 001:881 JLINK_WriteReg(PSP, 0x1FFF8800)  returns 0x00 (0001ms, 1306ms total)
T0468 001:882 JLINK_WriteReg(CFBP, 0x00000000)  returns 0x00 (0000ms, 1307ms total)
T0468 001:882 JLINK_SetBPEx(Addr = 0x1FFF8000, Type = 0xFFFFFFF2)  returns 0x0000000C (0000ms, 1307ms total)
T0468 001:882 JLINK_Go() -- CPU_WriteMem(4 bytes @ 0xE0002008) -- CPU_WriteMem(4 bytes @ 0xE000200C) -- CPU_WriteMem(4 bytes @ 0xE0002010) -- CPU_WriteMem(4 bytes @ 0xE0002014) -- CPU_WriteMem(4 bytes @ 0xE0002018) -- CPU_WriteMem(4 bytes @ 0xE000201C) (0006ms, 1307ms total)
T0468 001:888 JLINK_IsHalted()  returns TRUE (0003ms, 1313ms total)
T0468 001:891 JLINK_ReadReg(R15)  returns 0x1FFF8000 (0000ms, 1313ms total)
T0468 001:891 JLINK_ClrBPEx(BPHandle = 0x0000000C)  returns 0x00 (0000ms, 1313ms total)
T0468 001:891 JLINK_ReadReg(R0)  returns 0x00000001 (0000ms, 1313ms total)
T0468 001:891 JLINK_WriteReg(R0, 0x00002800)  returns 0x00 (0000ms, 1313ms total)
T0468 001:891 JLINK_WriteReg(R1, 0x00000800)  returns 0x00 (0000ms, 1313ms total)
T0468 001:891 JLINK_WriteReg(R2, 0x000000FF)  returns 0x00 (0000ms, 1313ms total)
T0468 001:891 JLINK_WriteReg(R3, 0x00000000)  returns 0x00 (0000ms, 1313ms total)
T0468 001:891 JLINK_WriteReg(R4, 0x00000000)  returns 0x00 (0000ms, 1313ms total)
T0468 001:891 JLINK_WriteReg(R5, 0x00000000)  returns 0x00 (0001ms, 1313ms total)
T0468 001:892 JLINK_WriteReg(R6, 0x00000000)  returns 0x00 (0000ms, 1314ms total)
T0468 001:892 JLINK_WriteReg(R7, 0x00000000)  returns 0x00 (0000ms, 1314ms total)
T0468 001:892 JLINK_WriteReg(R8, 0x00000000)  returns 0x00 (0000ms, 1314ms total)
T0468 001:892 JLINK_WriteReg(R9, 0x1FFF84F4)  returns 0x00 (0000ms, 1314ms total)
T0468 001:892 JLINK_WriteReg(R10, 0x00000000)  returns 0x00 (0000ms, 1314ms total)
T0468 001:892 JLINK_WriteReg(R11, 0x00000000)  returns 0x00 (0000ms, 1314ms total)
T0468 001:892 JLINK_WriteReg(R12, 0x00000000)  returns 0x00 (0000ms, 1314ms total)
T0468 001:892 JLINK_WriteReg(R13, 0x1FFF8800)  returns 0x00 (0000ms, 1314ms total)
T0468 001:892 JLINK_WriteReg(R14, 0x1FFF8001)  returns 0x00 (0000ms, 1314ms total)
T0468 001:892 JLINK_WriteReg(R15, 0x1FFF80B0)  returns 0x00 (0000ms, 1314ms total)
